T2DD0 31460:974 SEGGER J-Link V6.30h Log File (0000ms, 3171ms total)
T2DD0 31460:974 DLL Compiled: Mar 16 2018 18:02:51 (0000ms, 3171ms total)
T2DD0 31460:974 Logging started @ 2020-07-13 19:28 (0000ms, 3171ms total)
T2DD0 31460:974 JLINK_SetWarnOutHandler(...) (0000ms, 3171ms total)
T2DD0 31460:974 JLINK_OpenEx(...)
Firmware: J-Link V9 compiled Mar  2 2018 17:07:57
Hardware: V9.70
S/N: 59700618
Feature(s): RDI, FlashBP, FlashDL, JFlash, GDB
TELNET listener socket opened on port 19021WEBSRV 
Starting webserver (0093ms, 3264ms total)
T2DD0 31460:974 WEBSRV Webserver running on local port 19080 (0093ms, 3264ms total)
T2DD0 31460:974   returns O.K. (0093ms, 3264ms total)
T2DD0 31461:067 JLINK_GetEmuCaps()  returns 0xB9FF7BBF (0000ms, 3264ms total)
T2DD0 31461:068 JLINK_TIF_GetAvailable(...) (0000ms, 3264ms total)
T2DD0 31461:068 JLINK_SetErrorOutHandler(...) (0000ms, 3264ms total)
T2DD0 31461:068 JLINK_ExecCommand("ProjectFile = "D:\新时空\远程办公工作\第二次疫情\集中控制器\程序软件\APP\KEIL5\MDK-ARM\JLinkSettings.ini"", ...).   returns 0x00 (0002ms, 3266ms total)
T2DD0 31461:070 JLINK_ExecCommand("Device = STM32F407ZGTx", ...). Device "STM32F407ZG" selected.  returns 0x00 (0002ms, 3268ms total)
T2DD0 31461:072 JLINK_ExecCommand("DisableConnectionTimeout", ...).   returns 0x01 (0000ms, 3268ms total)
T2DD0 31461:072 JLINK_GetHardwareVersion()  returns 0x17AE8 (0000ms, 3268ms total)
T2DD0 31461:072 JLINK_GetDLLVersion()  returns 63008 (0000ms, 3268ms total)
T2DD0 31461:072 JLINK_GetFirmwareString(...) (0000ms, 3268ms total)
T2DD0 31461:072 JLINK_GetDLLVersion()  returns 63008 (0000ms, 3268ms total)
T2DD0 31461:072 JLINK_GetCompileDateTime() (0000ms, 3268ms total)
T2DD0 31461:072 JLINK_GetFirmwareString(...) (0000ms, 3268ms total)
T2DD0 31461:072 JLINK_GetHardwareVersion()  returns 0x17AE8 (0000ms, 3268ms total)
T2DD0 31461:072 JLINK_TIF_Select(JLINKARM_TIF_SWD)  returns 0x00 (0000ms, 3268ms total)
T2DD0 31461:073 JLINK_SetSpeed(2000) (0000ms, 3268ms total)
T2DD0 31461:073 JLINK_GetId() >0x10B TIF>Found SW-DP with ID 0x2BA01477 >0x0D TIF> >0x28 TIF> >0x0D TIF> >0x28 TIF> >0x0D TIF> >0x28 TIF> >0x0D TIF> >0x28 TIF> >0x0D TIF> >0x21 TIF> >0x0D TIF> >0x28 TIF> >0x0D TIF> >0x28 TIF> >0x0D TIF> >0x28 TIF> >0x0D TIF> >0x21 TIF> >0x0D TIF> >0x21 TIF> >0x0D TIF> >0x28 TIF> >0x0D TIF> >0x21 TIF> >0x0D TIF> >0x21 TIF> >0x0D TIF> >0x28 TIF> >0x0D TIF> >0x21 TIF> >0x0D TIF> >0x21 TIF> >0x0D TIF> >0x28 TIF> >0x0D TIF> >0x21 TIF> >0x0D TIF> >0x21 TIF> >0x0D TIF>
 >0x28 TIF> >0x0D TIF> >0x21 TIF> >0x0D TIF> >0x21 TIF> >0x0D TIF> >0x28 TIF> >0x0D TIF> >0x21 TIF> >0x0D TIF> >0x21 TIF> >0x10B TIF>Found SW-DP with ID 0x2BA01477 >0x0D TIF> >0x28 TIF> >0x0D TIF> >0x28 TIF> >0x0D TIF> >0x28 TIF> >0x0D TIF> >0x28 TIF> >0x0D TIF> >0x21 TIF> >0x0D TIF> >0x28 TIF>Scanning AP map to find all available APs >0x0D TIF> >0x28 TIF> >0x0D TIF> >0x21 TIF> >0x0D TIF> >0x21 TIF> >0x0D TIF> >0x28 TIF> >0x0D TIF> >0x21 TIF> >0x0D TIF> >0x21 TIF>
AP[1]: Stopped AP scan as end of AP map has been reachedAP[0]: AHB-AP (IDR: 0x24770011)Iterating through AP map to find AHB-AP to use >0x42 TIF> >0x28 TIF> >0x0D TIF> >0x28 TIF> >0x0D TIF> >0x21 TIF> >0x0D TIF> >0x21 TIF> >0x42 TIF> >0x28 TIF> >0x0D TIF> >0x28 TIF> >0x0D TIF> >0x28 TIF> >0x0D TIF> >0x21 TIF> >0x0D TIF> >0x21 TIF>AP[0]: Core foundAP[0]: AHB-AP ROM base: 0xE00FF000 >0x0D TIF> >0x28 TIF> >0x0D TIF> >0x28 TIF> >0x0D TIF> >0x28 TIF> >0x0D TIF> >0x21 TIF> >0x0D TIF> >0x21 TIF>
CPUID register: 0x410FC241. Implementer code: 0x41 (ARM)Found Cortex-M4 r0p1, Little endian. -- CPU_ReadMem(4 bytes @ 0xE000EDF0) -- CPU_WriteMem(4 bytes @ 0xE000EDF0) -- CPU_ReadMem(4 bytes @ 0xE0002000)FPUnit: 6 code (BP) slots and 2 literal slots -- CPU_ReadMem(4 bytes @ 0xE000EDFC) -- CPU_WriteMem(4 bytes @ 0xE000EDFC) -- CPU_ReadMem(4 bytes @ 0xE0001000) -- CPU_WriteMem(4 bytes @ 0xE0001000) -- CPU_ReadMem(4 bytes @ 0xE000ED88) -- CPU_WriteMem(4 bytes @ 0xE000ED88)
 -- CPU_ReadMem(4 bytes @ 0xE000ED88) -- CPU_WriteMem(4 bytes @ 0xE000ED88)CoreSight components:ROMTbl[0] @ E00FF000 -- CPU_ReadMem(16 bytes @ 0xE00FF000) -- CPU_ReadMem(16 bytes @ 0xE000EFF0) -- CPU_ReadMem(16 bytes @ 0xE000EFE0)ROMTbl[0][0]: E000E000, CID: B105E00D, PID: 000BB00C SCS-M7 -- CPU_ReadMem(16 bytes @ 0xE0001FF0) -- CPU_ReadMem(16 bytes @ 0xE0001FE0)ROMTbl[0][1]: E0001000, CID: B105E00D, PID: 003BB002 DWT -- CPU_ReadMem(16 bytes @ 0xE0002FF0) -- CPU_ReadMem(16 bytes @ 0xE0002FE0)
ROMTbl[0][2]: E0002000, CID: B105E00D, PID: 002BB003 FPB -- CPU_ReadMem(16 bytes @ 0xE0000FF0) -- CPU_ReadMem(16 bytes @ 0xE0000FE0)ROMTbl[0][3]: E0000000, CID: B105E00D, PID: 003BB001 ITM -- CPU_ReadMem(16 bytes @ 0xE00FF010) -- CPU_ReadMem(16 bytes @ 0xE0040FF0) -- CPU_ReadMem(16 bytes @ 0xE0040FE0)ROMTbl[0][4]: E0040000, CID: B105900D, PID: 000BB9A1 TPIU -- CPU_ReadMem(16 bytes @ 0xE0041FF0) -- CPU_ReadMem(16 bytes @ 0xE0041FE0)ROMTbl[0][5]: E0041000, CID: B105900D, PID: 000BB925 ETM >0x0D TIF>
 >0x21 TIF>  returns 0x2BA01477 (0138ms, 3406ms total)
T2DD0 31461:211 JLINK_GetDLLVersion()  returns 63008 (0000ms, 3406ms total)
T2DD0 31461:211 JLINK_CORE_GetFound()  returns 0xE0000FF (0000ms, 3406ms total)
T2DD0 31461:211 JLINK_GetDebugInfo(0x100 = JLINKARM_ROM_TABLE_ADDR_INDEX) -- Value=0xE00FF000  returns 0x00 (0000ms, 3406ms total)
T2DD0 31461:211 JLINK_GetDebugInfo(0x100 = JLINKARM_ROM_TABLE_ADDR_INDEX) -- Value=0xE00FF000  returns 0x00 (0000ms, 3406ms total)
T2DD0 31461:211 JLINK_GetDebugInfo(0x101 = JLINKARM_DEBUG_INFO_ETM_ADDR_INDEX) -- Value=0xE0041000  returns 0x00 (0000ms, 3406ms total)
T2DD0 31461:211 JLINK_ReadMemEx(0xE0041FD0, 0x0020 Bytes, ..., Flags = 0x02000004) -- CPU_ReadMem(32 bytes @ 0xE0041FD0) - Data: 04 00 00 00 00 00 00 00 00 00 00 00 00 00 00 00 ...  returns 0x20 (0001ms, 3407ms total)
T2DD0 31461:212 JLINK_GetDebugInfo(0x102 = JLINKARM_DEBUG_INFO_MTB_ADDR_INDEX) -- Value=0x00000000  returns 0x00 (0000ms, 3407ms total)
T2DD0 31461:212 JLINK_GetDebugInfo(0x103 = JLINKARM_DEBUG_INFO_TPIU_ADDR_INDEX) -- Value=0xE0040000  returns 0x00 (0000ms, 3407ms total)
T2DD0 31461:212 JLINK_GetDebugInfo(0x104 = JLINKARM_DEBUG_INFO_ITM_ADDR_INDEX) -- Value=0xE0000000  returns 0x00 (0000ms, 3407ms total)
T2DD0 31461:212 JLINK_GetDebugInfo(0x105 = JLINKARM_DEBUG_INFO_DWT_ADDR_INDEX) -- Value=0xE0001000  returns 0x00 (0000ms, 3407ms total)
T2DD0 31461:213 JLINK_GetDebugInfo(0x106 = JLINKARM_DEBUG_INFO_FPB_ADDR_INDEX) -- Value=0xE0002000  returns 0x00 (0000ms, 3407ms total)
T2DD0 31461:213 JLINK_GetDebugInfo(0x107 = JLINKARM_DEBUG_INFO_NVIC_ADDR_INDEX) -- Value=0xE000E000  returns 0x00 (0000ms, 3407ms total)
T2DD0 31461:213 JLINK_GetDebugInfo(0x10C = JLINKARM_DEBUG_INFO_DBG_ADDR_INDEX) -- Value=0xE000EDF0  returns 0x00 (0000ms, 3407ms total)
T2DD0 31461:213 JLINK_GetDebugInfo(0x01 = Unknown) -- Value=0x00000001  returns 0x00 (0000ms, 3407ms total)
T2DD0 31461:213 JLINK_ReadMemU32(0xE000ED00, 0x0001 Items, ...) -- CPU_ReadMem(4 bytes @ 0xE000ED00) - Data: 41 C2 0F 41  returns 0x01 (0001ms, 3408ms total)
T2DD0 31461:214 JLINK_GetDebugInfo(0x10F = JLINKARM_DEBUG_INFO_HAS_CORTEX_M_SECURITY_EXT_INDEX) -- Value=0x00000000  returns 0x00 (0000ms, 3408ms total)
T2DD0 31461:214 JLINK_SetResetType(JLINKARM_CM3_RESET_TYPE_NORMAL)  returns JLINKARM_CM3_RESET_TYPE_NORMAL (0000ms, 3408ms total)
T2DD0 31461:214 JLINK_Reset() -- CPU is running -- CPU_WriteMem(4 bytes @ 0xE000EDF0) -- CPU is running -- CPU_WriteMem(4 bytes @ 0xE000EDFC)Reset: Halt core after reset via DEMCR.VC_CORERESET. >0x35 TIF>Reset: Reset device via AIRCR.SYSRESETREQ. -- CPU is running -- CPU_WriteMem(4 bytes @ 0xE000ED0C) >0x0D TIF> >0x28 TIF> -- CPU_ReadMem(4 bytes @ 0xE000EDF0) -- CPU_ReadMem(4 bytes @ 0xE000EDF0) -- CPU is running -- CPU_WriteMem(4 bytes @ 0xE000EDF0) -- CPU is running
 -- CPU_WriteMem(4 bytes @ 0xE000EDFC) -- CPU_ReadMem(4 bytes @ 0xE000EDF0) -- CPU_WriteMem(4 bytes @ 0xE0002000) -- CPU_ReadMem(4 bytes @ 0xE000EDFC) -- CPU_ReadMem(4 bytes @ 0xE0001000) (0072ms, 3480ms total)
T2DD0 31461:286 JLINK_ReadReg(R15 (PC))  returns 0x08000254 (0000ms, 3480ms total)
T2DD0 31461:286 JLINK_ReadReg(XPSR)  returns 0x01000000 (0000ms, 3480ms total)
T2DD0 31461:286 JLINK_Halt()  returns 0x00 (0001ms, 3481ms total)
T2DD0 31461:287 JLINK_ReadMemU32(0xE000EDF0, 0x0001 Items, ...) -- CPU_ReadMem(4 bytes @ 0xE000EDF0) - Data: 03 00 03 00  returns 0x01 (0000ms, 3481ms total)
T2DD0 31461:287 JLINK_WriteU32(0xE000EDF0, 0xA05F0003) -- CPU_WriteMem(4 bytes @ 0xE000EDF0)  returns 0x00 (0001ms, 3482ms total)
T2DD0 31461:288 JLINK_WriteU32(0xE000EDFC, 0x01000000) -- CPU_WriteMem(4 bytes @ 0xE000EDFC)  returns 0x00 (0001ms, 3483ms total)
T2DD0 31461:289 JLINK_GetHWStatus(...)  returns 0x00 (0000ms, 3483ms total)
T2DD0 31461:290 JLINK_GetNumBPUnits(Type = 0xFFFFFF00)  returns 0x06 (0000ms, 3484ms total)
T2DD0 31461:290 JLINK_GetNumBPUnits(Type = 0xF0)  returns 0x2000 (0000ms, 3484ms total)
T2DD0 31461:290 JLINK_GetNumWPUnits()  returns 0x04 (0000ms, 3484ms total)
T2DD0 31461:290 JLINK_GetSpeed()  returns 0x7D0 (0000ms, 3484ms total)
T2DD0 31461:290 JLINK_ReadMemU32(0xE000E004, 0x0001 Items, ...) -- CPU_ReadMem(4 bytes @ 0xE000E004) - Data: 02 00 00 00  returns 0x01 (0001ms, 3485ms total)
T2DD0 31461:291 JLINK_ReadMemU32(0xE000E004, 0x0001 Items, ...) -- CPU_ReadMem(4 bytes @ 0xE000E004) - Data: 02 00 00 00  returns 0x01 (0001ms, 3486ms total)
T2DD0 31461:292 JLINK_WriteMemEx(0xE0001000, 0x001C Bytes, ..., Flags = 0x02000004) - Data: 01 00 00 00 00 00 00 00 00 00 00 00 00 00 00 00 ... -- CPU_WriteMem(28 bytes @ 0xE0001000)  returns 0x1C (0002ms, 3488ms total)
T2DD0 31461:294 JLINK_ReadReg(R15 (PC))  returns 0x08000254 (0001ms, 3489ms total)
T2DD0 31461:295 JLINK_ReadReg(XPSR)  returns 0x01000000 (0000ms, 3489ms total)
T2DD0 31461:391 JLINK_SetResetType(JLINKARM_CM3_RESET_TYPE_NORMAL)  returns JLINKARM_CM3_RESET_TYPE_NORMAL (0000ms, 3489ms total)
T2DD0 31461:391 JLINK_Reset() -- CPU_WriteMem(4 bytes @ 0xE000EDF0) -- CPU_WriteMem(4 bytes @ 0xE000EDFC)Reset: Halt core after reset via DEMCR.VC_CORERESET. >0x35 TIF>Reset: Reset device via AIRCR.SYSRESETREQ. -- CPU_WriteMem(4 bytes @ 0xE000ED0C) >0x0D TIF> >0x28 TIF> -- CPU_ReadMem(4 bytes @ 0xE000EDF0) -- CPU_ReadMem(4 bytes @ 0xE000EDF0) -- CPU_WriteMem(4 bytes @ 0xE000EDF0) -- CPU_WriteMem(4 bytes @ 0xE000EDFC) -- CPU_ReadMem(4 bytes @ 0xE000EDF0) -- CPU_WriteMem(4 bytes @ 0xE0002000)
 -- CPU_ReadMem(4 bytes @ 0xE000EDFC) -- CPU_ReadMem(4 bytes @ 0xE0001000) (0070ms, 3559ms total)
T2DD0 31461:461 JLINK_ReadReg(R15 (PC))  returns 0x08000254 (0000ms, 3559ms total)
T2DD0 31461:461 JLINK_ReadReg(XPSR)  returns 0x01000000 (0000ms, 3559ms total)
T2DD0 31461:647 JLINK_ReadMemEx(0x08000254, 0x003C Bytes, ..., Flags = 0x02000000) -- CPU_ReadMem(128 bytes @ 0x08000240) -- Updating C cache (128 bytes @ 0x08000240) -- Read from C cache (60 bytes @ 0x08000254) - Data: 06 48 80 47 06 48 00 47 FE E7 FE E7 FE E7 FE E7 ...  returns 0x3C (0002ms, 3561ms total)
T2DD0 31463:159 JLINK_ReadReg(R0)  returns 0x00000000 (0000ms, 3561ms total)
T2DD0 31463:159 JLINK_ReadReg(R1)  returns 0x00000000 (0000ms, 3561ms total)
T2DD0 31463:159 JLINK_ReadReg(R2)  returns 0x00000000 (0000ms, 3561ms total)
T2DD0 31463:159 JLINK_ReadReg(R3)  returns 0x00000000 (0000ms, 3561ms total)
T2DD0 31463:159 JLINK_ReadReg(R4)  returns 0x00000000 (0000ms, 3561ms total)
T2DD0 31463:159 JLINK_ReadReg(R5)  returns 0x00000000 (0000ms, 3561ms total)
T2DD0 31463:159 JLINK_ReadReg(R6)  returns 0x00000000 (0000ms, 3561ms total)
T2DD0 31463:159 JLINK_ReadReg(R7)  returns 0x00000000 (0000ms, 3561ms total)
T2DD0 31463:159 JLINK_ReadReg(R8)  returns 0x00000000 (0000ms, 3561ms total)
T2DD0 31463:159 JLINK_ReadReg(R9)  returns 0x00000000 (0000ms, 3561ms total)
T2DD0 31463:159 JLINK_ReadReg(R10)  returns 0x00000000 (0000ms, 3561ms total)
T2DD0 31463:159 JLINK_ReadReg(R11)  returns 0x00000000 (0000ms, 3561ms total)
T2DD0 31463:159 JLINK_ReadReg(R12)  returns 0x00000000 (0000ms, 3561ms total)
T2DD0 31463:159 JLINK_ReadReg(R13 (SP))  returns 0x20003A98 (0000ms, 3561ms total)
T2DD0 31463:159 JLINK_ReadReg(R14)  returns 0xFFFFFFFF (0000ms, 3561ms total)
T2DD0 31463:159 JLINK_ReadReg(R15 (PC))  returns 0x08000254 (0000ms, 3561ms total)
T2DD0 31463:159 JLINK_ReadReg(XPSR)  returns 0x01000000 (0000ms, 3561ms total)
T2DD0 31463:159 JLINK_ReadReg(MSP)  returns 0x20003A98 (0000ms, 3561ms total)
T2DD0 31463:159 JLINK_ReadReg(PSP)  returns 0x00000000 (0000ms, 3561ms total)
T2DD0 31463:159 JLINK_ReadReg(CFBP)  returns 0x00000000 (0000ms, 3561ms total)
T2DD0 31463:159 JLINK_ReadReg(FPSCR)  returns 0x00000000 (0006ms, 3567ms total)
T2DD0 31463:165 JLINK_ReadReg(FPS0)  returns 0x00000000 (0000ms, 3567ms total)
T2DD0 31463:165 JLINK_ReadReg(FPS1)  returns 0x00000000 (0000ms, 3567ms total)
T2DD0 31463:165 JLINK_ReadReg(FPS2)  returns 0x00000000 (0000ms, 3567ms total)
T2DD0 31463:165 JLINK_ReadReg(FPS3)  returns 0x00000000 (0000ms, 3567ms total)
T2DD0 31463:165 JLINK_ReadReg(FPS4)  returns 0x00000000 (0000ms, 3567ms total)
T2DD0 31463:166 JLINK_ReadReg(FPS5)  returns 0x00000000 (0000ms, 3568ms total)
T2DD0 31463:166 JLINK_ReadReg(FPS6)  returns 0x00000000 (0000ms, 3568ms total)
T2DD0 31463:166 JLINK_ReadReg(FPS7)  returns 0x00000000 (0000ms, 3568ms total)
T2DD0 31463:166 JLINK_ReadReg(FPS8)  returns 0x00000000 (0000ms, 3568ms total)
T2DD0 31463:166 JLINK_ReadReg(FPS9)  returns 0x00000000 (0000ms, 3568ms total)
T2DD0 31463:166 JLINK_ReadReg(FPS10)  returns 0x00000000 (0000ms, 3568ms total)
T2DD0 31463:166 JLINK_ReadReg(FPS11)  returns 0x00000000 (0000ms, 3568ms total)
T2DD0 31463:166 JLINK_ReadReg(FPS12)  returns 0x00000000 (0000ms, 3568ms total)
T2DD0 31463:166 JLINK_ReadReg(FPS13)  returns 0x00000000 (0000ms, 3568ms total)
T2DD0 31463:166 JLINK_ReadReg(FPS14)  returns 0x00000000 (0000ms, 3568ms total)
T2DD0 31463:166 JLINK_ReadReg(FPS15)  returns 0x00000000 (0000ms, 3568ms total)
T2DD0 31463:166 JLINK_ReadReg(FPS16)  returns 0x00000000 (0000ms, 3568ms total)
T2DD0 31463:166 JLINK_ReadReg(FPS17)  returns 0x00000000 (0000ms, 3568ms total)
T2DD0 31463:166 JLINK_ReadReg(FPS18)  returns 0x00000000 (0000ms, 3568ms total)
T2DD0 31463:166 JLINK_ReadReg(FPS19)  returns 0x00000000 (0000ms, 3568ms total)
T2DD0 31463:166 JLINK_ReadReg(FPS20)  returns 0x00000000 (0000ms, 3568ms total)
T2DD0 31463:167 JLINK_ReadReg(FPS21)  returns 0x00000000 (0000ms, 3568ms total)
T2DD0 31463:167 JLINK_ReadReg(FPS22)  returns 0x00000000 (0000ms, 3568ms total)
T2DD0 31463:167 JLINK_ReadReg(FPS23)  returns 0x00000000 (0000ms, 3568ms total)
T2DD0 31463:167 JLINK_ReadReg(FPS24)  returns 0x00000000 (0000ms, 3568ms total)
T2DD0 31463:167 JLINK_ReadReg(FPS25)  returns 0x00000000 (0000ms, 3568ms total)
T2DD0 31463:167 JLINK_ReadReg(FPS26)  returns 0x00000000 (0000ms, 3568ms total)
T2DD0 31463:167 JLINK_ReadReg(FPS27)  returns 0x00000000 (0000ms, 3568ms total)
T2DD0 31463:167 JLINK_ReadReg(FPS28)  returns 0x00000000 (0000ms, 3568ms total)
T2DD0 31463:167 JLINK_ReadReg(FPS29)  returns 0x00000000 (0000ms, 3568ms total)
T2DD0 31463:167 JLINK_ReadReg(FPS30)  returns 0x00000000 (0000ms, 3568ms total)
T2DD0 31463:167 JLINK_ReadReg(FPS31)  returns 0x00000000 (0000ms, 3568ms total)
T2DD0 31463:187 JLINK_ReadMemEx(0x2000010E, 0x0001 Bytes, ..., Flags = 0x02000000) -- CPU_ReadMem(64 bytes @ 0x20000100) -- Updating C cache (64 bytes @ 0x20000100) -- Read from C cache (1 bytes @ 0x2000010E) - Data: FF  returns 0x01 (0001ms, 3569ms total)
T2DD0 31463:283 JLINK_ReadMemEx(0x20000100, 0x0004 Bytes, ..., Flags = 0x02000000) -- Read from C cache (4 bytes @ 0x20000100) - Data: 00 00 00 00  returns 0x04 (0000ms, 3569ms total)
T2DD0 31463:308 JLINK_ReadMemEx(0x200000A4, 0x0004 Bytes, ..., Flags = 0x02000000) -- CPU_ReadMem(64 bytes @ 0x20000080) -- Updating C cache (64 bytes @ 0x20000080) -- Read from C cache (4 bytes @ 0x200000A4) - Data: 80 51 01 00  returns 0x04 (0001ms, 3570ms total)
T008C 31463:408 JLINK_ReadMemEx(0x08000254, 0x0002 Bytes, ..., Flags = 0x02000000) -- Read from C cache (2 bytes @ 0x08000254) - Data: 06 48  returns 0x02 (0000ms, 3570ms total)
T008C 31463:408 JLINK_SetBPEx(Addr = 0x080032C8, Type = 0xFFFFFFF2)  returns 0x00000001 (0000ms, 3570ms total)
T008C 31463:408 JLINK_Go() -- CPU_WriteMem(4 bytes @ 0xE0002000) -- CPU_ReadMem(4 bytes @ 0xE0001000) -- CPU_WriteMem(4 bytes @ 0xE0002008) -- CPU_WriteMem(4 bytes @ 0xE000200C) -- CPU_WriteMem(4 bytes @ 0xE0002010) -- CPU_WriteMem(4 bytes @ 0xE0002014) -- CPU_WriteMem(4 bytes @ 0xE0002018) -- CPU_WriteMem(4 bytes @ 0xE000201C) -- CPU_WriteMem(4 bytes @ 0xE0001004) (0004ms, 3574ms total)
T008C 31463:513 JLINK_IsHalted()  returns TRUE (0003ms, 3577ms total)
T008C 31463:516 JLINK_Halt()  returns 0x00 (0000ms, 3574ms total)
T008C 31463:516 JLINK_IsHalted()  returns TRUE (0000ms, 3574ms total)
T008C 31463:516 JLINK_IsHalted()  returns TRUE (0000ms, 3574ms total)
T008C 31463:516 JLINK_IsHalted()  returns TRUE (0000ms, 3574ms total)
T008C 31463:516 JLINK_ReadReg(R15 (PC))  returns 0x080032C8 (0000ms, 3574ms total)
T008C 31463:516 JLINK_ReadReg(XPSR)  returns 0x61000000 (0000ms, 3574ms total)
T008C 31463:516 JLINK_ClrBPEx(BPHandle = 0x00000001)  returns 0x00 (0000ms, 3574ms total)
T008C 31463:516 JLINK_ReadMemU32(0xE000ED30, 0x0001 Items, ...) -- CPU_ReadMem(4 bytes @ 0xE000ED30) - Data: 02 00 00 00  returns 0x01 (0001ms, 3575ms total)
T008C 31463:517 JLINK_ReadMemU32(0xE0001028, 0x0001 Items, ...) -- CPU_ReadMem(4 bytes @ 0xE0001028) - Data: 00 00 00 00  returns 0x01 (0000ms, 3575ms total)
T008C 31463:517 JLINK_ReadMemU32(0xE0001038, 0x0001 Items, ...) -- CPU_ReadMem(4 bytes @ 0xE0001038) - Data: 00 02 00 00  returns 0x01 (0001ms, 3576ms total)
T008C 31463:518 JLINK_ReadMemU32(0xE0001048, 0x0001 Items, ...) -- CPU_ReadMem(4 bytes @ 0xE0001048) - Data: 00 00 00 00  returns 0x01 (0000ms, 3576ms total)
T008C 31463:518 JLINK_ReadMemU32(0xE0001058, 0x0001 Items, ...) -- CPU_ReadMem(4 bytes @ 0xE0001058) - Data: 00 00 00 00  returns 0x01 (0001ms, 3577ms total)
T008C 31463:519 JLINK_ReadReg(R0)  returns 0x080032C9 (0000ms, 3577ms total)
T008C 31463:519 JLINK_ReadReg(R1)  returns 0x20003A98 (0000ms, 3577ms total)
T008C 31463:519 JLINK_ReadReg(R2)  returns 0x00000000 (0000ms, 3577ms total)
T008C 31463:519 JLINK_ReadReg(R3)  returns 0x080027A1 (0000ms, 3577ms total)
T008C 31463:519 JLINK_ReadReg(R4)  returns 0x080045C4 (0000ms, 3577ms total)
T008C 31463:519 JLINK_ReadReg(R5)  returns 0x080045C4 (0000ms, 3577ms total)
T008C 31463:519 JLINK_ReadReg(R6)  returns 0x00000000 (0000ms, 3577ms total)
T008C 31463:519 JLINK_ReadReg(R7)  returns 0x00000000 (0000ms, 3577ms total)
T008C 31463:519 JLINK_ReadReg(R8)  returns 0x00000000 (0000ms, 3577ms total)
T008C 31463:519 JLINK_ReadReg(R9)  returns 0x00000000 (0000ms, 3577ms total)
T008C 31463:519 JLINK_ReadReg(R10)  returns 0x00000000 (0000ms, 3577ms total)
T008C 31463:519 JLINK_ReadReg(R11)  returns 0x00000000 (0000ms, 3577ms total)
T008C 31463:519 JLINK_ReadReg(R12)  returns 0x00000000 (0000ms, 3577ms total)
T008C 31463:519 JLINK_ReadReg(R13 (SP))  returns 0x20003A98 (0000ms, 3577ms total)
T008C 31463:519 JLINK_ReadReg(R14)  returns 0x080008B5 (0000ms, 3577ms total)
T008C 31463:519 JLINK_ReadReg(R15 (PC))  returns 0x080032C8 (0000ms, 3577ms total)
T008C 31463:519 JLINK_ReadReg(XPSR)  returns 0x61000000 (0000ms, 3577ms total)
T008C 31463:519 JLINK_ReadReg(MSP)  returns 0x20003A98 (0000ms, 3577ms total)
T008C 31463:519 JLINK_ReadReg(PSP)  returns 0x00000000 (0000ms, 3577ms total)
T008C 31463:519 JLINK_ReadReg(CFBP)  returns 0x00000000 (0000ms, 3577ms total)
T008C 31463:519 JLINK_ReadReg(FPSCR)  returns 0x00000000 (0005ms, 3582ms total)
T008C 31463:524 JLINK_ReadReg(FPS0)  returns 0x00000000 (0000ms, 3582ms total)
T008C 31463:524 JLINK_ReadReg(FPS1)  returns 0x00000000 (0000ms, 3582ms total)
T008C 31463:524 JLINK_ReadReg(FPS2)  returns 0x00000000 (0000ms, 3582ms total)
T008C 31463:524 JLINK_ReadReg(FPS3)  returns 0x00000000 (0000ms, 3582ms total)
T008C 31463:524 JLINK_ReadReg(FPS4)  returns 0x00000000 (0000ms, 3582ms total)
T008C 31463:524 JLINK_ReadReg(FPS5)  returns 0x00000000 (0000ms, 3582ms total)
T008C 31463:525 JLINK_ReadReg(FPS6)  returns 0x00000000 (0000ms, 3582ms total)
T008C 31463:525 JLINK_ReadReg(FPS7)  returns 0x00000000 (0000ms, 3582ms total)
T008C 31463:525 JLINK_ReadReg(FPS8)  returns 0x00000000 (0000ms, 3582ms total)
T008C 31463:525 JLINK_ReadReg(FPS9)  returns 0x00000000 (0000ms, 3582ms total)
T008C 31463:525 JLINK_ReadReg(FPS10)  returns 0x00000000 (0000ms, 3582ms total)
T008C 31463:525 JLINK_ReadReg(FPS11)  returns 0x00000000 (0000ms, 3582ms total)
T008C 31463:525 JLINK_ReadReg(FPS12)  returns 0x00000000 (0000ms, 3582ms total)
T008C 31463:525 JLINK_ReadReg(FPS13)  returns 0x00000000 (0000ms, 3582ms total)
T008C 31463:525 JLINK_ReadReg(FPS14)  returns 0x00000000 (0000ms, 3582ms total)
T008C 31463:525 JLINK_ReadReg(FPS15)  returns 0x00000000 (0000ms, 3582ms total)
T008C 31463:525 JLINK_ReadReg(FPS16)  returns 0x00000000 (0000ms, 3582ms total)
T008C 31463:525 JLINK_ReadReg(FPS17)  returns 0x00000000 (0000ms, 3582ms total)
T008C 31463:525 JLINK_ReadReg(FPS18)  returns 0x00000000 (0000ms, 3582ms total)
T008C 31463:525 JLINK_ReadReg(FPS19)  returns 0x00000000 (0000ms, 3582ms total)
T008C 31463:525 JLINK_ReadReg(FPS20)  returns 0x00000000 (0000ms, 3582ms total)
T008C 31463:525 JLINK_ReadReg(FPS21)  returns 0x00000000 (0000ms, 3582ms total)
T008C 31463:525 JLINK_ReadReg(FPS22)  returns 0x00000000 (0000ms, 3582ms total)
T008C 31463:525 JLINK_ReadReg(FPS23)  returns 0x00000000 (0000ms, 3582ms total)
T008C 31463:525 JLINK_ReadReg(FPS24)  returns 0x00000000 (0000ms, 3582ms total)
T008C 31463:525 JLINK_ReadReg(FPS25)  returns 0x00000000 (0000ms, 3582ms total)
T008C 31463:525 JLINK_ReadReg(FPS26)  returns 0x00000000 (0000ms, 3582ms total)
T008C 31463:525 JLINK_ReadReg(FPS27)  returns 0x00000000 (0000ms, 3582ms total)
T008C 31463:525 JLINK_ReadReg(FPS28)  returns 0x00000000 (0000ms, 3582ms total)
T008C 31463:525 JLINK_ReadReg(FPS29)  returns 0x00000000 (0000ms, 3582ms total)
T008C 31463:525 JLINK_ReadReg(FPS30)  returns 0x00000000 (0000ms, 3582ms total)
T008C 31463:525 JLINK_ReadReg(FPS31)  returns 0x00000000 (0000ms, 3582ms total)
T2DD0 31463:526 JLINK_ReadMemEx(0x2000010E, 0x0001 Bytes, ..., Flags = 0x02000000) -- CPU_ReadMem(64 bytes @ 0x20000100) -- Updating C cache (64 bytes @ 0x20000100) -- Read from C cache (1 bytes @ 0x2000010E) - Data: FF  returns 0x01 (0001ms, 3583ms total)
T2DD0 31463:532 JLINK_ReadMemEx(0x20000100, 0x0004 Bytes, ..., Flags = 0x02000000) -- Read from C cache (4 bytes @ 0x20000100) - Data: 00 00 00 00  returns 0x04 (0000ms, 3583ms total)
T2DD0 31463:532 JLINK_ReadMemEx(0x200000A4, 0x0004 Bytes, ..., Flags = 0x02000000) -- CPU_ReadMem(64 bytes @ 0x20000080) -- Updating C cache (64 bytes @ 0x20000080) -- Read from C cache (4 bytes @ 0x200000A4) - Data: 80 51 01 00  returns 0x04 (0001ms, 3584ms total)
T008C 31466:560 JLINK_ReadMemEx(0x080032C8, 0x0002 Bytes, ..., Flags = 0x02000000) -- CPU_ReadMem(64 bytes @ 0x080032C0) -- Updating C cache (64 bytes @ 0x080032C0) -- Read from C cache (2 bytes @ 0x080032C8) - Data: 10 B5  returns 0x02 (0001ms, 3585ms total)
T008C 31466:561 JLINK_SetBPEx(Addr = 0x08003388, Type = 0xFFFFFFF2)  returns 0x00000002 (0000ms, 3585ms total)
T008C 31466:561 JLINK_Go() -- CPU_WriteMem(4 bytes @ 0xE0002000) -- CPU_ReadMem(4 bytes @ 0xE0001000) -- CPU_WriteMem(4 bytes @ 0xE0002008) (0002ms, 3587ms total)
T008C 31466:663 JLINK_IsHalted()  returns TRUE (0005ms, 3592ms total)
T008C 31466:668 JLINK_Halt()  returns 0x00 (0000ms, 3587ms total)
T008C 31466:668 JLINK_IsHalted()  returns TRUE (0000ms, 3587ms total)
T008C 31466:668 JLINK_IsHalted()  returns TRUE (0000ms, 3587ms total)
T008C 31466:668 JLINK_IsHalted()  returns TRUE (0000ms, 3587ms total)
T008C 31466:668 JLINK_ReadReg(R15 (PC))  returns 0x08003388 (0000ms, 3587ms total)
T008C 31466:668 JLINK_ReadReg(XPSR)  returns 0x61000000 (0000ms, 3587ms total)
T008C 31466:668 JLINK_ClrBPEx(BPHandle = 0x00000002)  returns 0x00 (0000ms, 3587ms total)
T008C 31466:668 JLINK_ReadMemU32(0xE000ED30, 0x0001 Items, ...) -- CPU_ReadMem(4 bytes @ 0xE000ED30) - Data: 02 00 00 00  returns 0x01 (0000ms, 3587ms total)
T008C 31466:668 JLINK_ReadMemU32(0xE0001028, 0x0001 Items, ...) -- CPU_ReadMem(4 bytes @ 0xE0001028) - Data: 00 00 00 00  returns 0x01 (0000ms, 3587ms total)
T008C 31466:668 JLINK_ReadMemU32(0xE0001038, 0x0001 Items, ...) -- CPU_ReadMem(4 bytes @ 0xE0001038) - Data: 00 02 00 00  returns 0x01 (0001ms, 3588ms total)
T008C 31466:670 JLINK_ReadMemU32(0xE0001048, 0x0001 Items, ...) -- CPU_ReadMem(4 bytes @ 0xE0001048) - Data: 00 00 00 00  returns 0x01 (0000ms, 3588ms total)
T008C 31466:670 JLINK_ReadMemU32(0xE0001058, 0x0001 Items, ...) -- CPU_ReadMem(4 bytes @ 0xE0001058) - Data: 00 00 00 00  returns 0x01 (0001ms, 3589ms total)
T008C 31466:671 JLINK_ReadReg(R0)  returns 0x0000000A (0000ms, 3589ms total)
T008C 31466:671 JLINK_ReadReg(R1)  returns 0x20000001 (0000ms, 3589ms total)
T008C 31466:671 JLINK_ReadReg(R2)  returns 0x00000010 (0000ms, 3589ms total)
T008C 31466:671 JLINK_ReadReg(R3)  returns 0x01000001 (0000ms, 3589ms total)
T008C 31466:671 JLINK_ReadReg(R4)  returns 0x080045C4 (0000ms, 3589ms total)
T008C 31466:671 JLINK_ReadReg(R5)  returns 0x080045C4 (0000ms, 3589ms total)
T008C 31466:671 JLINK_ReadReg(R6)  returns 0x00000000 (0000ms, 3589ms total)
T008C 31466:671 JLINK_ReadReg(R7)  returns 0x00000000 (0000ms, 3589ms total)
T008C 31466:671 JLINK_ReadReg(R8)  returns 0x00000000 (0000ms, 3589ms total)
T008C 31466:671 JLINK_ReadReg(R9)  returns 0x00000000 (0000ms, 3589ms total)
T008C 31466:671 JLINK_ReadReg(R10)  returns 0x00000000 (0000ms, 3589ms total)
T008C 31466:671 JLINK_ReadReg(R11)  returns 0x00000000 (0000ms, 3589ms total)
T008C 31466:671 JLINK_ReadReg(R12)  returns 0x00000150 (0000ms, 3589ms total)
T008C 31466:671 JLINK_ReadReg(R13 (SP))  returns 0x20003A90 (0000ms, 3589ms total)
T008C 31466:671 JLINK_ReadReg(R14)  returns 0x08001169 (0000ms, 3589ms total)
T008C 31466:671 JLINK_ReadReg(R15 (PC))  returns 0x08003388 (0000ms, 3589ms total)
T008C 31466:671 JLINK_ReadReg(XPSR)  returns 0x61000000 (0000ms, 3589ms total)
T008C 31466:671 JLINK_ReadReg(MSP)  returns 0x20003A90 (0000ms, 3589ms total)
T008C 31466:671 JLINK_ReadReg(PSP)  returns 0x00000000 (0000ms, 3589ms total)
T008C 31466:671 JLINK_ReadReg(CFBP)  returns 0x00000000 (0000ms, 3589ms total)
T008C 31466:671 JLINK_ReadReg(FPSCR)  returns 0x00000000 (0006ms, 3595ms total)
T008C 31466:677 JLINK_ReadReg(FPS0)  returns 0x00000000 (0000ms, 3595ms total)
T008C 31466:677 JLINK_ReadReg(FPS1)  returns 0x00000000 (0000ms, 3595ms total)
T008C 31466:677 JLINK_ReadReg(FPS2)  returns 0x00000000 (0000ms, 3595ms total)
T008C 31466:677 JLINK_ReadReg(FPS3)  returns 0x00000000 (0000ms, 3595ms total)
T008C 31466:677 JLINK_ReadReg(FPS4)  returns 0x00000000 (0000ms, 3595ms total)
T008C 31466:677 JLINK_ReadReg(FPS5)  returns 0x00000000 (0000ms, 3595ms total)
T008C 31466:677 JLINK_ReadReg(FPS6)  returns 0x00000000 (0000ms, 3595ms total)
T008C 31466:677 JLINK_ReadReg(FPS7)  returns 0x00000000 (0000ms, 3595ms total)
T008C 31466:677 JLINK_ReadReg(FPS8)  returns 0x00000000 (0000ms, 3595ms total)
T008C 31466:677 JLINK_ReadReg(FPS9)  returns 0x00000000 (0000ms, 3595ms total)
T008C 31466:677 JLINK_ReadReg(FPS10)  returns 0x00000000 (0000ms, 3595ms total)
T008C 31466:677 JLINK_ReadReg(FPS11)  returns 0x00000000 (0000ms, 3595ms total)
T008C 31466:677 JLINK_ReadReg(FPS12)  returns 0x00000000 (0000ms, 3595ms total)
T008C 31466:677 JLINK_ReadReg(FPS13)  returns 0x00000000 (0001ms, 3596ms total)
T008C 31466:678 JLINK_ReadReg(FPS14)  returns 0x00000000 (0000ms, 3596ms total)
T008C 31466:678 JLINK_ReadReg(FPS15)  returns 0x00000000 (0000ms, 3596ms total)
T008C 31466:678 JLINK_ReadReg(FPS16)  returns 0x00000000 (0000ms, 3596ms total)
T008C 31466:678 JLINK_ReadReg(FPS17)  returns 0x00000000 (0000ms, 3596ms total)
T008C 31466:678 JLINK_ReadReg(FPS18)  returns 0x00000000 (0000ms, 3596ms total)
T008C 31466:678 JLINK_ReadReg(FPS19)  returns 0x00000000 (0000ms, 3596ms total)
T008C 31466:678 JLINK_ReadReg(FPS20)  returns 0x00000000 (0000ms, 3596ms total)
T008C 31466:678 JLINK_ReadReg(FPS21)  returns 0x00000000 (0000ms, 3596ms total)
T008C 31466:678 JLINK_ReadReg(FPS22)  returns 0x00000000 (0000ms, 3596ms total)
T008C 31466:678 JLINK_ReadReg(FPS23)  returns 0x00000000 (0000ms, 3596ms total)
T008C 31466:678 JLINK_ReadReg(FPS24)  returns 0x00000000 (0000ms, 3596ms total)
T008C 31466:678 JLINK_ReadReg(FPS25)  returns 0x00000000 (0000ms, 3596ms total)
T008C 31466:678 JLINK_ReadReg(FPS26)  returns 0x00000000 (0000ms, 3596ms total)
T008C 31466:678 JLINK_ReadReg(FPS27)  returns 0x00000000 (0000ms, 3596ms total)
T008C 31466:678 JLINK_ReadReg(FPS28)  returns 0x00000000 (0000ms, 3596ms total)
T008C 31466:678 JLINK_ReadReg(FPS29)  returns 0x00000000 (0000ms, 3596ms total)
T008C 31466:678 JLINK_ReadReg(FPS30)  returns 0x00000000 (0000ms, 3596ms total)
T008C 31466:678 JLINK_ReadReg(FPS31)  returns 0x00000000 (0000ms, 3596ms total)
T2DD0 31466:678 JLINK_ReadMemEx(0x2000010E, 0x0001 Bytes, ..., Flags = 0x02000000) -- CPU_ReadMem(64 bytes @ 0x20000100) -- Updating C cache (64 bytes @ 0x20000100) -- Read from C cache (1 bytes @ 0x2000010E) - Data: FF  returns 0x01 (0001ms, 3597ms total)
T2DD0 31466:682 JLINK_ReadMemEx(0x20000100, 0x0004 Bytes, ..., Flags = 0x02000000) -- Read from C cache (4 bytes @ 0x20000100) - Data: 00 00 00 00  returns 0x04 (0000ms, 3597ms total)
T2DD0 31466:683 JLINK_ReadMemEx(0x200000A4, 0x0004 Bytes, ..., Flags = 0x02000000) -- CPU_ReadMem(64 bytes @ 0x20000080) -- Updating C cache (64 bytes @ 0x20000080) -- Read from C cache (4 bytes @ 0x200000A4) - Data: 80 51 01 00  returns 0x04 (0002ms, 3599ms total)
T2DD0 31466:685 JLINK_ReadMemEx(0x08003388, 0x003C Bytes, ..., Flags = 0x02000000) -- CPU_ReadMem(128 bytes @ 0x08003380) -- Updating C cache (128 bytes @ 0x08003380) -- Read from C cache (60 bytes @ 0x08003388) - Data: 07 48 00 78 40 1C 06 49 08 70 05 48 00 78 0A 28 ...  returns 0x3C (0002ms, 3601ms total)
T008C 31467:213 JLINK_ReadMemEx(0x08003388, 0x0002 Bytes, ..., Flags = 0x02000000) -- Read from C cache (2 bytes @ 0x08003388) - Data: 07 48  returns 0x02 (0000ms, 3601ms total)
T008C 31467:213 JLINK_Step() -- Read from C cache (2 bytes @ 0x08003388) -- CPU_ReadMem(4 bytes @ 0xE000ED18) -- CPU_WriteMem(4 bytes @ 0xE000ED18) -- CPU_ReadMem(4 bytes @ 0xE000ED18) -- CPU_WriteMem(4 bytes @ 0xE000ED18) -- CPU_ReadMem(4 bytes @ 0xE0001004) -- Read from C cache (4 bytes @ 0x080033A8) -- Simulated  returns 0x00 (0003ms, 3604ms total)
T008C 31467:216 JLINK_ReadReg(R15 (PC))  returns 0x0800338A (0000ms, 3604ms total)
T008C 31467:216 JLINK_ReadReg(XPSR)  returns 0x61000000 (0000ms, 3604ms total)
T008C 31467:216 JLINK_Step() -- Read from C cache (2 bytes @ 0x0800338A) -- CPU_ReadMem(64 bytes @ 0x20000000) -- Updating C cache (64 bytes @ 0x20000000) -- Read from C cache (1 bytes @ 0x20000000) -- Simulated  returns 0x00 (0001ms, 3605ms total)
T008C 31467:217 JLINK_ReadReg(R15 (PC))  returns 0x0800338C (0000ms, 3605ms total)
T008C 31467:217 JLINK_ReadReg(XPSR)  returns 0x61000000 (0000ms, 3605ms total)
T008C 31467:217 JLINK_ReadMemEx(0x0800338C, 0x003C Bytes, ..., Flags = 0x02000000) -- Read from C cache (60 bytes @ 0x0800338C) - Data: 40 1C 06 49 08 70 05 48 00 78 0A 28 D6 DB 00 20 ...  returns 0x3C (0000ms, 3605ms total)
T008C 31467:217 JLINK_ReadMemEx(0x0800338C, 0x0002 Bytes, ..., Flags = 0x02000000) -- Read from C cache (2 bytes @ 0x0800338C) - Data: 40 1C  returns 0x02 (0000ms, 3605ms total)
T008C 31467:217 JLINK_ReadMemEx(0x0800338E, 0x0002 Bytes, ..., Flags = 0x02000000) -- Read from C cache (2 bytes @ 0x0800338E) - Data: 06 49  returns 0x02 (0000ms, 3605ms total)
T008C 31467:217 JLINK_Step() -- Read from C cache (2 bytes @ 0x0800338C) -- Simulated  returns 0x00 (0000ms, 3605ms total)
T008C 31467:217 JLINK_ReadReg(R15 (PC))  returns 0x0800338E (0000ms, 3605ms total)
T008C 31467:217 JLINK_ReadReg(XPSR)  returns 0x01000000 (0000ms, 3605ms total)
T008C 31467:217 JLINK_ReadMemEx(0x0800338E, 0x0002 Bytes, ..., Flags = 0x02000000) -- Read from C cache (2 bytes @ 0x0800338E) - Data: 06 49  returns 0x02 (0000ms, 3605ms total)
T008C 31467:217 JLINK_ReadMemEx(0x08003390, 0x003C Bytes, ..., Flags = 0x02000000) -- Read from C cache (60 bytes @ 0x08003390) - Data: 08 70 05 48 00 78 0A 28 D6 DB 00 20 10 BD 00 00 ...  returns 0x3C (0000ms, 3605ms total)
T008C 31467:217 JLINK_ReadMemEx(0x08003390, 0x0002 Bytes, ..., Flags = 0x02000000) -- Read from C cache (2 bytes @ 0x08003390) - Data: 08 70  returns 0x02 (0000ms, 3605ms total)
T008C 31467:217 JLINK_Step() -- Read from C cache (2 bytes @ 0x0800338E) -- Read from C cache (4 bytes @ 0x080033A8) -- Simulated  returns 0x00 (0000ms, 3605ms total)
T008C 31467:217 JLINK_ReadReg(R15 (PC))  returns 0x08003390 (0000ms, 3605ms total)
T008C 31467:217 JLINK_ReadReg(XPSR)  returns 0x01000000 (0000ms, 3605ms total)
T008C 31467:217 JLINK_ReadMemEx(0x08003390, 0x003C Bytes, ..., Flags = 0x02000000) -- Read from C cache (60 bytes @ 0x08003390) - Data: 08 70 05 48 00 78 0A 28 D6 DB 00 20 10 BD 00 00 ...  returns 0x3C (0000ms, 3605ms total)
T008C 31467:217 JLINK_ReadMemEx(0x08003390, 0x0002 Bytes, ..., Flags = 0x02000000) -- Read from C cache (2 bytes @ 0x08003390) - Data: 08 70  returns 0x02 (0000ms, 3605ms total)
T008C 31467:217 JLINK_ReadMemEx(0x08003392, 0x0002 Bytes, ..., Flags = 0x02000000) -- Read from C cache (2 bytes @ 0x08003392) - Data: 05 48  returns 0x02 (0000ms, 3605ms total)
T008C 31467:217 JLINK_Step() -- Read from C cache (2 bytes @ 0x08003390) -- CPU_WriteMem(1 bytes @ 0x20000000) -- Simulated  returns 0x00 (0001ms, 3606ms total)
T008C 31467:218 JLINK_ReadReg(R15 (PC))  returns 0x08003392 (0000ms, 3606ms total)
T008C 31467:218 JLINK_ReadReg(XPSR)  returns 0x01000000 (0000ms, 3606ms total)
T008C 31467:218 JLINK_ReadMemEx(0x08003392, 0x0002 Bytes, ..., Flags = 0x02000000) -- Read from C cache (2 bytes @ 0x08003392) - Data: 05 48  returns 0x02 (0000ms, 3606ms total)
T008C 31467:218 JLINK_ReadMemEx(0x08003394, 0x003C Bytes, ..., Flags = 0x02000000) -- Read from C cache (60 bytes @ 0x08003394) - Data: 00 78 0A 28 D6 DB 00 20 10 BD 00 00 7C 01 00 20 ...  returns 0x3C (0000ms, 3606ms total)
T008C 31467:218 JLINK_ReadMemEx(0x08003394, 0x0002 Bytes, ..., Flags = 0x02000000) -- Read from C cache (2 bytes @ 0x08003394) - Data: 00 78  returns 0x02 (0000ms, 3606ms total)
T008C 31467:218 JLINK_Step() -- Read from C cache (2 bytes @ 0x08003392) -- Read from C cache (4 bytes @ 0x080033A8) -- Simulated  returns 0x00 (0000ms, 3606ms total)
T008C 31467:218 JLINK_ReadReg(R15 (PC))  returns 0x08003394 (0000ms, 3606ms total)
T008C 31467:218 JLINK_ReadReg(XPSR)  returns 0x01000000 (0000ms, 3606ms total)
T008C 31467:218 JLINK_ReadMemEx(0x08003394, 0x003C Bytes, ..., Flags = 0x02000000) -- Read from C cache (60 bytes @ 0x08003394) - Data: 00 78 0A 28 D6 DB 00 20 10 BD 00 00 7C 01 00 20 ...  returns 0x3C (0000ms, 3606ms total)
T008C 31467:218 JLINK_ReadMemEx(0x08003394, 0x0002 Bytes, ..., Flags = 0x02000000) -- Read from C cache (2 bytes @ 0x08003394) - Data: 00 78  returns 0x02 (0000ms, 3606ms total)
T008C 31467:218 JLINK_ReadMemEx(0x08003396, 0x0002 Bytes, ..., Flags = 0x02000000) -- Read from C cache (2 bytes @ 0x08003396) - Data: 0A 28  returns 0x02 (0000ms, 3606ms total)
T008C 31467:218 JLINK_Step() -- Read from C cache (2 bytes @ 0x08003394) -- CPU_ReadMem(64 bytes @ 0x20000000) -- Updating C cache (64 bytes @ 0x20000000) -- Read from C cache (1 bytes @ 0x20000000) -- Simulated  returns 0x00 (0002ms, 3608ms total)
T008C 31467:220 JLINK_ReadReg(R15 (PC))  returns 0x08003396 (0000ms, 3608ms total)
T008C 31467:220 JLINK_ReadReg(XPSR)  returns 0x01000000 (0000ms, 3608ms total)
T008C 31467:220 JLINK_ReadMemEx(0x08003396, 0x0002 Bytes, ..., Flags = 0x02000000) -- Read from C cache (2 bytes @ 0x08003396) - Data: 0A 28  returns 0x02 (0000ms, 3608ms total)
T008C 31467:220 JLINK_ReadMemEx(0x08003398, 0x003C Bytes, ..., Flags = 0x02000000) -- Read from C cache (60 bytes @ 0x08003398) - Data: D6 DB 00 20 10 BD 00 00 7C 01 00 20 04 00 00 20 ...  returns 0x3C (0000ms, 3608ms total)
T008C 31467:220 JLINK_ReadMemEx(0x08003398, 0x0002 Bytes, ..., Flags = 0x02000000) -- Read from C cache (2 bytes @ 0x08003398) - Data: D6 DB  returns 0x02 (0000ms, 3608ms total)
T008C 31467:220 JLINK_Step() -- Read from C cache (2 bytes @ 0x08003396) -- Simulated  returns 0x00 (0000ms, 3608ms total)
T008C 31467:220 JLINK_ReadReg(R15 (PC))  returns 0x08003398 (0000ms, 3608ms total)
T008C 31467:220 JLINK_ReadReg(XPSR)  returns 0x81000000 (0000ms, 3608ms total)
T008C 31467:220 JLINK_ReadMemEx(0x08003398, 0x003C Bytes, ..., Flags = 0x02000000) -- Read from C cache (60 bytes @ 0x08003398) - Data: D6 DB 00 20 10 BD 00 00 7C 01 00 20 04 00 00 20 ...  returns 0x3C (0000ms, 3608ms total)
T008C 31467:220 JLINK_ReadMemEx(0x08003398, 0x0002 Bytes, ..., Flags = 0x02000000) -- Read from C cache (2 bytes @ 0x08003398) - Data: D6 DB  returns 0x02 (0000ms, 3608ms total)
T008C 31467:220 JLINK_ReadMemEx(0x0800339A, 0x0002 Bytes, ..., Flags = 0x02000000) -- Read from C cache (2 bytes @ 0x0800339A) - Data: 00 20  returns 0x02 (0000ms, 3608ms total)
T008C 31467:220 JLINK_Step() -- Read from C cache (2 bytes @ 0x08003398) -- Simulated  returns 0x00 (0000ms, 3608ms total)
T008C 31467:220 JLINK_ReadReg(R15 (PC))  returns 0x08003348 (0000ms, 3608ms total)
T008C 31467:220 JLINK_ReadReg(XPSR)  returns 0x81000000 (0000ms, 3608ms total)
T008C 31467:221 JLINK_ReadReg(R0)  returns 0x00000001 (0000ms, 3609ms total)
T008C 31467:221 JLINK_ReadReg(R1)  returns 0x20000000 (0000ms, 3609ms total)
T008C 31467:221 JLINK_ReadReg(R2)  returns 0x00000010 (0000ms, 3609ms total)
T008C 31467:221 JLINK_ReadReg(R3)  returns 0x01000001 (0000ms, 3609ms total)
T008C 31467:221 JLINK_ReadReg(R4)  returns 0x080045C4 (0000ms, 3609ms total)
T008C 31467:221 JLINK_ReadReg(R5)  returns 0x080045C4 (0000ms, 3609ms total)
T008C 31467:221 JLINK_ReadReg(R6)  returns 0x00000000 (0000ms, 3609ms total)
T008C 31467:221 JLINK_ReadReg(R7)  returns 0x00000000 (0000ms, 3609ms total)
T008C 31467:221 JLINK_ReadReg(R8)  returns 0x00000000 (0000ms, 3609ms total)
T008C 31467:221 JLINK_ReadReg(R9)  returns 0x00000000 (0000ms, 3609ms total)
T008C 31467:221 JLINK_ReadReg(R10)  returns 0x00000000 (0000ms, 3609ms total)
T008C 31467:221 JLINK_ReadReg(R11)  returns 0x00000000 (0000ms, 3609ms total)
T008C 31467:221 JLINK_ReadReg(R12)  returns 0x00000150 (0000ms, 3609ms total)
T008C 31467:221 JLINK_ReadReg(R13 (SP))  returns 0x20003A90 (0000ms, 3609ms total)
T008C 31467:221 JLINK_ReadReg(R14)  returns 0x08001169 (0000ms, 3609ms total)
T008C 31467:221 JLINK_ReadReg(R15 (PC))  returns 0x08003348 (0000ms, 3609ms total)
T008C 31467:221 JLINK_ReadReg(XPSR)  returns 0x81000000 (0000ms, 3609ms total)
T008C 31467:221 JLINK_ReadReg(MSP)  returns 0x20003A90 (0000ms, 3609ms total)
T008C 31467:221 JLINK_ReadReg(PSP)  returns 0x00000000 (0000ms, 3609ms total)
T008C 31467:221 JLINK_ReadReg(CFBP)  returns 0x00000000 (0000ms, 3609ms total)
T008C 31467:221 JLINK_ReadReg(FPSCR)  returns 0x00000000 (0000ms, 3609ms total)
T008C 31467:221 JLINK_ReadReg(FPS0)  returns 0x00000000 (0000ms, 3609ms total)
T008C 31467:221 JLINK_ReadReg(FPS1)  returns 0x00000000 (0000ms, 3609ms total)
T008C 31467:221 JLINK_ReadReg(FPS2)  returns 0x00000000 (0000ms, 3609ms total)
T008C 31467:221 JLINK_ReadReg(FPS3)  returns 0x00000000 (0000ms, 3609ms total)
T008C 31467:221 JLINK_ReadReg(FPS4)  returns 0x00000000 (0000ms, 3609ms total)
T008C 31467:221 JLINK_ReadReg(FPS5)  returns 0x00000000 (0000ms, 3609ms total)
T008C 31467:221 JLINK_ReadReg(FPS6)  returns 0x00000000 (0000ms, 3609ms total)
T008C 31467:221 JLINK_ReadReg(FPS7)  returns 0x00000000 (0000ms, 3609ms total)
T008C 31467:221 JLINK_ReadReg(FPS8)  returns 0x00000000 (0000ms, 3609ms total)
T008C 31467:221 JLINK_ReadReg(FPS9)  returns 0x00000000 (0000ms, 3609ms total)
T008C 31467:221 JLINK_ReadReg(FPS10)  returns 0x00000000 (0000ms, 3609ms total)
T008C 31467:221 JLINK_ReadReg(FPS11)  returns 0x00000000 (0000ms, 3609ms total)
T008C 31467:221 JLINK_ReadReg(FPS12)  returns 0x00000000 (0000ms, 3609ms total)
T008C 31467:221 JLINK_ReadReg(FPS13)  returns 0x00000000 (0001ms, 3610ms total)
T008C 31467:222 JLINK_ReadReg(FPS14)  returns 0x00000000 (0000ms, 3610ms total)
T008C 31467:222 JLINK_ReadReg(FPS15)  returns 0x00000000 (0000ms, 3610ms total)
T008C 31467:222 JLINK_ReadReg(FPS16)  returns 0x00000000 (0000ms, 3610ms total)
T008C 31467:222 JLINK_ReadReg(FPS17)  returns 0x00000000 (0000ms, 3610ms total)
T008C 31467:222 JLINK_ReadReg(FPS18)  returns 0x00000000 (0000ms, 3610ms total)
T008C 31467:222 JLINK_ReadReg(FPS19)  returns 0x00000000 (0000ms, 3610ms total)
T008C 31467:222 JLINK_ReadReg(FPS20)  returns 0x00000000 (0000ms, 3610ms total)
T008C 31467:222 JLINK_ReadReg(FPS21)  returns 0x00000000 (0000ms, 3610ms total)
T008C 31467:222 JLINK_ReadReg(FPS22)  returns 0x00000000 (0000ms, 3610ms total)
T008C 31467:222 JLINK_ReadReg(FPS23)  returns 0x00000000 (0000ms, 3610ms total)
T008C 31467:222 JLINK_ReadReg(FPS24)  returns 0x00000000 (0000ms, 3610ms total)
T008C 31467:222 JLINK_ReadReg(FPS25)  returns 0x00000000 (0000ms, 3610ms total)
T008C 31467:222 JLINK_ReadReg(FPS26)  returns 0x00000000 (0000ms, 3610ms total)
T008C 31467:222 JLINK_ReadReg(FPS27)  returns 0x00000000 (0000ms, 3610ms total)
T008C 31467:222 JLINK_ReadReg(FPS28)  returns 0x00000000 (0000ms, 3610ms total)
T008C 31467:222 JLINK_ReadReg(FPS29)  returns 0x00000000 (0000ms, 3610ms total)
T008C 31467:222 JLINK_ReadReg(FPS30)  returns 0x00000000 (0000ms, 3610ms total)
T008C 31467:222 JLINK_ReadReg(FPS31)  returns 0x00000000 (0000ms, 3610ms total)
T2DD0 31467:222 JLINK_ReadMemEx(0x2000010E, 0x0001 Bytes, ..., Flags = 0x02000000) -- Read from C cache (1 bytes @ 0x2000010E) - Data: FF  returns 0x01 (0000ms, 3610ms total)
T2DD0 31467:230 JLINK_ReadMemEx(0x20000100, 0x0004 Bytes, ..., Flags = 0x02000000) -- Read from C cache (4 bytes @ 0x20000100) - Data: 00 00 00 00  returns 0x04 (0000ms, 3610ms total)
T2DD0 31467:231 JLINK_ReadMemEx(0x200000A4, 0x0004 Bytes, ..., Flags = 0x02000000) -- Read from C cache (4 bytes @ 0x200000A4) - Data: 80 51 01 00  returns 0x04 (0000ms, 3610ms total)
T2DD0 31467:233 JLINK_ReadMemEx(0x08003348, 0x003C Bytes, ..., Flags = 0x02000000) -- CPU_ReadMem(64 bytes @ 0x08003340) -- Updating C cache (64 bytes @ 0x08003340) -- Read from C cache (60 bytes @ 0x08003348) - Data: 00 20 18 49 08 70 17 E0 00 20 17 49 08 70 09 E0 ...  returns 0x3C (0001ms, 3611ms total)
T008C 31467:742 JLINK_ReadMemEx(0x08003348, 0x0002 Bytes, ..., Flags = 0x02000000) -- Read from C cache (2 bytes @ 0x08003348) - Data: 00 20  returns 0x02 (0000ms, 3611ms total)
T008C 31467:742 JLINK_Step() -- Read from C cache (2 bytes @ 0x08003348) -- Simulated  returns 0x00 (0001ms, 3612ms total)
T008C 31467:743 JLINK_ReadReg(R15 (PC))  returns 0x0800334A (0000ms, 3612ms total)
T008C 31467:743 JLINK_ReadReg(XPSR)  returns 0x41000000 (0000ms, 3612ms total)
T008C 31467:743 JLINK_ReadMemEx(0x0800334A, 0x0002 Bytes, ..., Flags = 0x02000000) -- Read from C cache (2 bytes @ 0x0800334A) - Data: 18 49  returns 0x02 (0000ms, 3612ms total)
T008C 31467:743 JLINK_ReadMemEx(0x0800334C, 0x003C Bytes, ..., Flags = 0x02000000) -- Read from C cache (60 bytes @ 0x0800334C) - Data: 08 70 17 E0 00 20 17 49 08 70 09 E0 15 48 00 78 ...  returns 0x3C (0000ms, 3612ms total)
T008C 31467:743 JLINK_ReadMemEx(0x0800334C, 0x0002 Bytes, ..., Flags = 0x02000000) -- Read from C cache (2 bytes @ 0x0800334C) - Data: 08 70  returns 0x02 (0000ms, 3612ms total)
T008C 31467:743 JLINK_Step() -- Read from C cache (2 bytes @ 0x0800334A) -- Read from C cache (4 bytes @ 0x080033AC) -- Simulated  returns 0x00 (0000ms, 3612ms total)
T008C 31467:743 JLINK_ReadReg(R15 (PC))  returns 0x0800334C (0000ms, 3612ms total)
T008C 31467:743 JLINK_ReadReg(XPSR)  returns 0x41000000 (0000ms, 3612ms total)
T008C 31467:743 JLINK_ReadMemEx(0x0800334C, 0x003C Bytes, ..., Flags = 0x02000000) -- Read from C cache (60 bytes @ 0x0800334C) - Data: 08 70 17 E0 00 20 17 49 08 70 09 E0 15 48 00 78 ...  returns 0x3C (0000ms, 3612ms total)
T008C 31467:743 JLINK_ReadMemEx(0x0800334C, 0x0002 Bytes, ..., Flags = 0x02000000) -- Read from C cache (2 bytes @ 0x0800334C) - Data: 08 70  returns 0x02 (0000ms, 3612ms total)
T008C 31467:743 JLINK_ReadMemEx(0x0800334E, 0x0002 Bytes, ..., Flags = 0x02000000) -- Read from C cache (2 bytes @ 0x0800334E) - Data: 17 E0  returns 0x02 (0000ms, 3612ms total)
T008C 31467:743 JLINK_Step() -- Read from C cache (2 bytes @ 0x0800334C) -- CPU_WriteMem(1 bytes @ 0x20000001) -- Simulated  returns 0x00 (0001ms, 3613ms total)
T008C 31467:744 JLINK_ReadReg(R15 (PC))  returns 0x0800334E (0000ms, 3613ms total)
T008C 31467:744 JLINK_ReadReg(XPSR)  returns 0x41000000 (0000ms, 3613ms total)
T008C 31467:744 JLINK_ReadMemEx(0x0800334E, 0x0002 Bytes, ..., Flags = 0x02000000) -- Read from C cache (2 bytes @ 0x0800334E) - Data: 17 E0  returns 0x02 (0000ms, 3613ms total)
T008C 31467:744 JLINK_ReadMemEx(0x08003350, 0x003C Bytes, ..., Flags = 0x02000000) -- Read from C cache (60 bytes @ 0x08003350) - Data: 00 20 17 49 08 70 09 E0 15 48 00 78 03 28 00 D1 ...  returns 0x3C (0000ms, 3613ms total)
T008C 31467:744 JLINK_ReadMemEx(0x08003350, 0x0002 Bytes, ..., Flags = 0x02000000) -- Read from C cache (2 bytes @ 0x08003350) - Data: 00 20  returns 0x02 (0000ms, 3613ms total)
T008C 31467:744 JLINK_Step() -- Read from C cache (2 bytes @ 0x0800334E) -- Simulated  returns 0x00 (0000ms, 3613ms total)
T008C 31467:744 JLINK_ReadReg(R15 (PC))  returns 0x08003380 (0000ms, 3613ms total)
T008C 31467:744 JLINK_ReadReg(XPSR)  returns 0x41000000 (0000ms, 3613ms total)
T008C 31467:744 JLINK_ReadMemEx(0x0800337E, 0x0002 Bytes, ..., Flags = 0x02000000) -- Read from C cache (2 bytes @ 0x0800337E) - Data: 08 70  returns 0x02 (0000ms, 3613ms total)
T008C 31467:744 JLINK_ReadMemEx(0x08003380, 0x003C Bytes, ..., Flags = 0x02000000) -- Read from C cache (60 bytes @ 0x08003380) - Data: 0A 48 00 78 0A 28 E3 DB 07 48 00 78 40 1C 06 49 ...  returns 0x3C (0000ms, 3613ms total)
T008C 31467:744 JLINK_ReadMemEx(0x08003380, 0x0002 Bytes, ..., Flags = 0x02000000) -- Read from C cache (2 bytes @ 0x08003380) - Data: 0A 48  returns 0x02 (0000ms, 3613ms total)
T008C 31467:744 JLINK_ReadMemEx(0x08003380, 0x003C Bytes, ..., Flags = 0x02000000) -- Read from C cache (60 bytes @ 0x08003380) - Data: 0A 48 00 78 0A 28 E3 DB 07 48 00 78 40 1C 06 49 ...  returns 0x3C (0000ms, 3613ms total)
T008C 31467:744 JLINK_ReadMemEx(0x08003380, 0x0002 Bytes, ..., Flags = 0x02000000) -- Read from C cache (2 bytes @ 0x08003380) - Data: 0A 48  returns 0x02 (0000ms, 3613ms total)
T008C 31467:744 JLINK_ReadMemEx(0x08003382, 0x0002 Bytes, ..., Flags = 0x02000000) -- Read from C cache (2 bytes @ 0x08003382) - Data: 00 78  returns 0x02 (0000ms, 3613ms total)
T008C 31467:744 JLINK_Step() -- Read from C cache (2 bytes @ 0x08003380) -- Read from C cache (4 bytes @ 0x080033AC) -- Simulated  returns 0x00 (0001ms, 3614ms total)
T008C 31467:745 JLINK_ReadReg(R15 (PC))  returns 0x08003382 (0000ms, 3614ms total)
T008C 31467:745 JLINK_ReadReg(XPSR)  returns 0x41000000 (0000ms, 3614ms total)
T008C 31467:745 JLINK_ReadMemEx(0x08003382, 0x0002 Bytes, ..., Flags = 0x02000000) -- Read from C cache (2 bytes @ 0x08003382) - Data: 00 78  returns 0x02 (0000ms, 3614ms total)
T008C 31467:745 JLINK_ReadMemEx(0x08003384, 0x003C Bytes, ..., Flags = 0x02000000) -- Read from C cache (60 bytes @ 0x08003384) - Data: 0A 28 E3 DB 07 48 00 78 40 1C 06 49 08 70 05 48 ...  returns 0x3C (0000ms, 3614ms total)
T008C 31467:745 JLINK_ReadMemEx(0x08003384, 0x0002 Bytes, ..., Flags = 0x02000000) -- Read from C cache (2 bytes @ 0x08003384) - Data: 0A 28  returns 0x02 (0000ms, 3614ms total)
T008C 31467:745 JLINK_Step() -- Read from C cache (2 bytes @ 0x08003382) -- CPU_ReadMem(64 bytes @ 0x20000000) -- Updating C cache (64 bytes @ 0x20000000) -- Read from C cache (1 bytes @ 0x20000001) -- Simulated  returns 0x00 (0001ms, 3615ms total)
T008C 31467:746 JLINK_ReadReg(R15 (PC))  returns 0x08003384 (0000ms, 3615ms total)
T008C 31467:746 JLINK_ReadReg(XPSR)  returns 0x41000000 (0000ms, 3615ms total)
T008C 31467:746 JLINK_ReadMemEx(0x08003384, 0x003C Bytes, ..., Flags = 0x02000000) -- Read from C cache (60 bytes @ 0x08003384) - Data: 0A 28 E3 DB 07 48 00 78 40 1C 06 49 08 70 05 48 ...  returns 0x3C (0000ms, 3615ms total)
T008C 31467:746 JLINK_ReadMemEx(0x08003384, 0x0002 Bytes, ..., Flags = 0x02000000) -- Read from C cache (2 bytes @ 0x08003384) - Data: 0A 28  returns 0x02 (0000ms, 3615ms total)
T008C 31467:746 JLINK_ReadMemEx(0x08003386, 0x0002 Bytes, ..., Flags = 0x02000000) -- Read from C cache (2 bytes @ 0x08003386) - Data: E3 DB  returns 0x02 (0000ms, 3615ms total)
T008C 31467:746 JLINK_Step() -- Read from C cache (2 bytes @ 0x08003384) -- Simulated  returns 0x00 (0000ms, 3615ms total)
T008C 31467:746 JLINK_ReadReg(R15 (PC))  returns 0x08003386 (0000ms, 3615ms total)
T008C 31467:746 JLINK_ReadReg(XPSR)  returns 0x81000000 (0000ms, 3615ms total)
T008C 31467:746 JLINK_ReadMemEx(0x08003386, 0x0002 Bytes, ..., Flags = 0x02000000) -- Read from C cache (2 bytes @ 0x08003386) - Data: E3 DB  returns 0x02 (0000ms, 3615ms total)
T008C 31467:746 JLINK_ReadMemEx(0x08003388, 0x003C Bytes, ..., Flags = 0x02000000) -- Read from C cache (60 bytes @ 0x08003388) - Data: 07 48 00 78 40 1C 06 49 08 70 05 48 00 78 0A 28 ...  returns 0x3C (0000ms, 3615ms total)
T008C 31467:746 JLINK_ReadMemEx(0x08003388, 0x0002 Bytes, ..., Flags = 0x02000000) -- Read from C cache (2 bytes @ 0x08003388) - Data: 07 48  returns 0x02 (0000ms, 3615ms total)
T008C 31467:746 JLINK_Step() -- Read from C cache (2 bytes @ 0x08003386) -- Simulated  returns 0x00 (0000ms, 3615ms total)
T008C 31467:746 JLINK_ReadReg(R15 (PC))  returns 0x08003350 (0000ms, 3615ms total)
T008C 31467:746 JLINK_ReadReg(XPSR)  returns 0x81000000 (0000ms, 3615ms total)
T008C 31467:746 JLINK_ReadReg(R0)  returns 0x00000000 (0000ms, 3615ms total)
T008C 31467:746 JLINK_ReadReg(R1)  returns 0x20000001 (0000ms, 3615ms total)
T008C 31467:746 JLINK_ReadReg(R2)  returns 0x00000010 (0000ms, 3615ms total)
T008C 31467:746 JLINK_ReadReg(R3)  returns 0x01000001 (0000ms, 3615ms total)
